# //  Questa Sim
# //  Version 10.6c linux Jul 25 2017
# //
# //  Copyright 1991-2017 Mentor Graphics Corporation
# //  All Rights Reserved.
# //
# //  QuestaSim and its associated documentation contain trade
# //  secrets and commercial or financial information that are the property of
# //  Mentor Graphics Corporation and are privileged, confidential,
# //  and exempt from disclosure under the Freedom of Information Act,
# //  5 U.S.C. Section 552. Furthermore, this information
# //  is prohibited from disclosure under the Trade Secrets Act,
# //  18 U.S.C. Section 1905.
# //
# vsim -novopt tb_top hdl_top "+UVM_TESTNAME=axi4_virtual_write_test" "+UVM_VERBOSITY=UVM_MEDIUMcd" 
# Start time: 16:47:51 on Aug 19,2026
# ** Warning: (vsim-8891) All optimizations are turned off because the -novopt switch is in effect. This will cause your simulation to run very slowly. If you are using this switch to preserve visibility for Debug or PLI features please see the User's Manual section on Preserving Object Visibility with vopt.
# Loading sv_std.std
# Loading mtiUvm.uvm_pkg
# Loading work.axi4_globals_pkg
# Loading work.axi4_globals_pkg_sv_unit
# Loading work.inf
# Loading work.axi4_slave_pkg
# Loading work.tb_pkg
# Loading work.tb_top
# Loading work.hdl_top
# Loading work.axi4_if
# Loading work.Top_Module_AXI4
# Loading work.design_fifo
# Loading work.sync_fifo
# Loading work.my_decoder
# Loading work.write_response_handler
# Loading work.AXI_Master
# Loading work.AXI_MASTER_WRITE__CONTROL
# Loading work.AXI_MASTER_READ_Control
# Loading mtiUvm.questa_uvm_pkg
# Loading work.axi4_slave_agent_bfm
# Loading work.axi4_slave_driver_bfm
# Loading work.axi4_slave_monitor_bfm
# Loading work.slave_assertions
# ** Warning: (vsim-3017) hdl_top/hdl_top.sv(73): [TFMPC] - Too few port connections. Expected 46, found 45.
#    Time: 0 ps  Iteration: 0  Instance: /hdl_top/dut File: rtl/Top_Module_AXI4.v
# ** Warning: (vsim-3015) hdl_top/hdl_top.sv(73): [PCDPC] - Port size (4) does not match connection size (8) for port 'AWLEN_a'. The port definition is at: rtl/Top_Module_AXI4.v(44).
#    Time: 0 ps  Iteration: 0  Instance: /hdl_top/dut File: rtl/Top_Module_AXI4.v
# ** Warning: (vsim-3015) hdl_top/hdl_top.sv(73): [PCDPC] - Port size (2) does not match connection size (4) for port 'AWCACHE_a'. The port definition is at: rtl/Top_Module_AXI4.v(48).
#    Time: 0 ps  Iteration: 0  Instance: /hdl_top/dut File: rtl/Top_Module_AXI4.v
# ** Warning: (vsim-3015) hdl_top/hdl_top.sv(73): [PCDPC] - Port size (4) does not match connection size (8) for port 'ARLEN_a'. The port definition is at: rtl/Top_Module_AXI4.v(53).
#    Time: 0 ps  Iteration: 0  Instance: /hdl_top/dut File: rtl/Top_Module_AXI4.v
# ** Warning: (vsim-3015) hdl_top/hdl_top.sv(73): [PCDPC] - Port size (2) does not match connection size (4) for port 'ARCACHE_a'. The port definition is at: rtl/Top_Module_AXI4.v(57).
#    Time: 0 ps  Iteration: 0  Instance: /hdl_top/dut File: rtl/Top_Module_AXI4.v
# ** Warning: (vsim-3722) hdl_top/hdl_top.sv(73): [TFMPC] - Missing connection for port 'WID_a'.
# ** Warning: (vsim-3015) rtl/Top_Module_AXI4.v(133): [PCDPC] - Port size (128) does not match connection size (1) for port 'write_data'. The port definition is at: rtl/decoder.v(25).
#    Time: 0 ps  Iteration: 0  Instance: /hdl_top/dut/decoder File: rtl/decoder.v
# ** Warning: (vsim-3015) rtl/Top_Module_AXI4.v(133): [PCDPC] - Port size (4) does not match connection size (2) for port 'bresp'. The port definition is at: rtl/decoder.v(64).
#    Time: 0 ps  Iteration: 0  Instance: /hdl_top/dut/decoder File: rtl/decoder.v
# ** Warning: (vsim-3015) rtl/Top_Module_AXI4.v(133): [PCDPC] - Port size (4) does not match connection size (2) for port 'rresp'. The port definition is at: rtl/decoder.v(59).
#    Time: 0 ps  Iteration: 0  Instance: /hdl_top/dut/decoder File: rtl/decoder.v
# ** Warning: (vsim-3015) rtl/Top_Module_AXI4.v(133): [PCDPC] - Port size (10) does not match connection size (2) for port 'arlock'. The port definition is at: rtl/decoder.v(47).
#    Time: 0 ps  Iteration: 0  Instance: /hdl_top/dut/decoder File: rtl/decoder.v
# ** Warning: (vsim-3015) rtl/decoder.v(370): [PCDPC] - Port size (2) does not match connection size (4) for port 'bresp'. The port definition is at: rtl/write_response_handler.v(9).
#    Time: 0 ps  Iteration: 0  Instance: /hdl_top/dut/decoder/wresp File: rtl/write_response_handler.v
# ** Warning: (vsim-3015) rtl/Top_Module_AXI4.v(177): [PCDPC] - Port size (8) does not match connection size (4) for port 'AWID'. The port definition is at: rtl/AXI_Master.v(30).
#    Time: 0 ps  Iteration: 0  Instance: /hdl_top/dut/DUT_axi File: rtl/AXI_Master.v
# ** Warning: (vsim-3015) rtl/Top_Module_AXI4.v(177): [PCDPC] - Port size (8) does not match connection size (4) for port 'AWLEN'. The port definition is at: rtl/AXI_Master.v(32).
#    Time: 0 ps  Iteration: 0  Instance: /hdl_top/dut/DUT_axi File: rtl/AXI_Master.v
# ** Warning: (vsim-3015) rtl/Top_Module_AXI4.v(177): [PCDPC] - Port size (64) does not match connection size (32) for port 'WDATA'. The port definition is at: rtl/AXI_Master.v(44).
#    Time: 0 ps  Iteration: 0  Instance: /hdl_top/dut/DUT_axi File: rtl/AXI_Master.v
# ** Warning: (vsim-3015) rtl/Top_Module_AXI4.v(177): [PCDPC] - Port size (8) does not match connection size (4) for port 'ARLEN'. The port definition is at: rtl/AXI_Master.v(58).
#    Time: 0 ps  Iteration: 0  Instance: /hdl_top/dut/DUT_axi File: rtl/AXI_Master.v
# ** Warning: (vsim-3015) rtl/Top_Module_AXI4.v(177): [PCDPC] - Port size (64) does not match connection size (32) for port 'RDATA'. The port definition is at: rtl/AXI_Master.v(69).
#    Time: 0 ps  Iteration: 0  Instance: /hdl_top/dut/DUT_axi File: rtl/AXI_Master.v
# ** Warning: (vsim-3015) rtl/Top_Module_AXI4.v(177): [PCDPC] - Port size (8) does not match connection size (4) for port 'awlen_d'. The port definition is at: rtl/AXI_Master.v(79).
#    Time: 0 ps  Iteration: 0  Instance: /hdl_top/dut/DUT_axi File: rtl/AXI_Master.v
# ** Warning: (vsim-3015) rtl/Top_Module_AXI4.v(177): [PCDPC] - Port size (64) does not match connection size (32) for port 'wdata_d'. The port definition is at: rtl/AXI_Master.v(86).
#    Time: 0 ps  Iteration: 0  Instance: /hdl_top/dut/DUT_axi File: rtl/AXI_Master.v
# ** Warning: (vsim-3015) rtl/Top_Module_AXI4.v(177): [PCDPC] - Port size (64) does not match connection size (32) for port 'rdata_d'. The port definition is at: rtl/AXI_Master.v(107).
#    Time: 0 ps  Iteration: 0  Instance: /hdl_top/dut/DUT_axi File: rtl/AXI_Master.v
# ** Warning: (vsim-3015) rtl/Top_Module_AXI4.v(177): [PCDPC] - Port size (8) does not match connection size (4) for port 'rid_d'. The port definition is at: rtl/AXI_Master.v(109).
#    Time: 0 ps  Iteration: 0  Instance: /hdl_top/dut/DUT_axi File: rtl/AXI_Master.v
# ** Warning: (vsim-3015) rtl/AXI_Master.v(124): [PCDPC] - Port size (4) does not match connection size (8) for port 'AWID'. The port definition is at: rtl/AXI_MASTER_WRITE_CONTROL.v(32).
#    Time: 0 ps  Iteration: 0  Instance: /hdl_top/dut/DUT_axi/AXI_WRITE_CONTROL File: rtl/AXI_MASTER_WRITE_CONTROL.v
# ** Warning: (vsim-3015) rtl/AXI_Master.v(124): [PCDPC] - Port size (32) does not match connection size (64) for port 'WDATA'. The port definition is at: rtl/AXI_MASTER_WRITE_CONTROL.v(47).
#    Time: 0 ps  Iteration: 0  Instance: /hdl_top/dut/DUT_axi/AXI_WRITE_CONTROL File: rtl/AXI_MASTER_WRITE_CONTROL.v
# ** Warning: (vsim-3015) rtl/AXI_Master.v(124): [PCDPC] - Port size (4) does not match connection size (8) for port 'awlen_d'. The port definition is at: rtl/AXI_MASTER_WRITE_CONTROL.v(63).
#    Time: 0 ps  Iteration: 0  Instance: /hdl_top/dut/DUT_axi/AXI_WRITE_CONTROL File: rtl/AXI_MASTER_WRITE_CONTROL.v
# ** Warning: (vsim-3015) rtl/AXI_Master.v(124): [PCDPC] - Port size (32) does not match connection size (64) for port 'wdata_d'. The port definition is at: rtl/AXI_MASTER_WRITE_CONTROL.v(70).
#    Time: 0 ps  Iteration: 0  Instance: /hdl_top/dut/DUT_axi/AXI_WRITE_CONTROL File: rtl/AXI_MASTER_WRITE_CONTROL.v
# ** Warning: (vsim-3015) rtl/AXI_Master.v(182): [PCDPC] - Port size (4) does not match connection size (8) for port 'ARLEN'. The port definition is at: rtl/AXI_MASTER_READ_CONTROL.v(32).
#    Time: 0 ps  Iteration: 0  Instance: /hdl_top/dut/DUT_axi/AXI_READ_CONTROL File: rtl/AXI_MASTER_READ_CONTROL.v
# ** Warning: (vsim-3015) rtl/AXI_Master.v(182): [PCDPC] - Port size (32) does not match connection size (64) for port 'RDATA'. The port definition is at: rtl/AXI_MASTER_READ_CONTROL.v(42).
#    Time: 0 ps  Iteration: 0  Instance: /hdl_top/dut/DUT_axi/AXI_READ_CONTROL File: rtl/AXI_MASTER_READ_CONTROL.v
# ** Warning: (vsim-3015) rtl/AXI_Master.v(182): [PCDPC] - Port size (32) does not match connection size (64) for port 'rdata_d'. The port definition is at: rtl/AXI_MASTER_READ_CONTROL.v(66).
#    Time: 0 ps  Iteration: 0  Instance: /hdl_top/dut/DUT_axi/AXI_READ_CONTROL File: rtl/AXI_MASTER_READ_CONTROL.v
# ** Warning: (vsim-3015) rtl/AXI_Master.v(182): [PCDPC] - Port size (4) does not match connection size (8) for port 'rid_d'. The port definition is at: rtl/AXI_MASTER_READ_CONTROL.v(68).
#    Time: 0 ps  Iteration: 0  Instance: /hdl_top/dut/DUT_axi/AXI_READ_CONTROL File: rtl/AXI_MASTER_READ_CONTROL.v
# Loading /tools/mentor/questasim_10.6c/questasim/uvm-1.1d/linux/uvm_dpi.so
quit
# End time: 16:47:58 on Aug 19,2026, Elapsed time: 0:00:07
# Errors: 0, Warnings: 29
